Re(Z)/Ohm,-Im(Z)/Ohm,freq/Hz,Phase(Z)/deg,Unnamed: 4
22.099098,297.08978,100003.71,-85.745872,
23.248297,332.71616,89129.305,-86.002998,
24.322168,372.34995,79433.273,-86.262711,
25.551113,416.87479,70794.984,-86.492615,
27.433758,467.17279,63093.828,-86.639282,
30.41671,523.19403,56237.012,-86.672768,
32.514572,586.04633,50122.477,-86.824417,
34.632973,655.19763,44666.715,-86.974228,
37.127529,732.40192,39814.063,-87.098,
39.954548,820.5932,35481.0,-87.212479,
43.312443,918.83899,31621.143,-87.301178,
46.774902,1030.178,28188.094,-87.400291,
51.276432,1152.0886,25116.906,-87.451599,
56.148415,1289.069,22389.031,-87.505928,
61.544971,1442.28,19948.781,-87.556557,
68.679939,1614.9312,17786.891,-87.564789,
76.38224,1808.1263,15847.683,-87.581039,
84.780251,2022.8678,14121.883,-87.600082,
94.34864,2261.2412,12590.93,-87.610764,
105.03298,2530.085,11217.713,-87.62281,
119.42661,2827.9312,10002.226,-87.581772,
135.98605,3167.467,8914.9326,-87.541679,
152.54184,3547.144,7943.9951,-87.53756,
170.7834,3965.9946,7081.583,-87.534256,
206.78293,4440.2808,6307.7358,-87.333672,
233.85284,4966.3262,5622.5879,-87.304062,
264.37674,5547.4624,5011.603,-87.271507,
301.07999,6203.5903,4466.4292,-87.221436,
340.91992,6940.0098,3981.2773,-87.187675,
387.44653,7751.6685,3548.8679,-87.138603,
442.315,8673.5352,3163.0398,-87.080681,
501.55521,9692.334,2819.0986,-87.03772,
573.30908,10839.106,2512.4104,-86.972298,
657.42767,12111.374,2239.2869,-86.892929,
749.70294,13536.713,1995.6381,-86.830032,
849.6665,15114.561,1778.2897,-86.782501,
975.19568,16886.471,1584.4927,-86.694832,
1122.291,18911.723,1412.7418,-86.603844,
1294.4263,21151.154,1258.7905,-86.497932,
1452.7688,23611.637,1121.7966,-86.479164,
1669.427,26384.516,999.68164,-86.379555,
2050.2468,29467.889,891.42474,-86.020027,
2328.2698,32937.414,794.23932,-85.956619,
2623.6584,36781.301,707.96161,-85.91993,
2967.9849,41003.75,631.00977,-85.859962,
3352.2903,45806.234,562.33929,-85.814316,
3850.2793,51127.539,501.12231,-85.693336,
4327.6387,57020.461,446.57214,-85.659782,
4886.2495,63604.598,398.08899,-85.607033,
5548.627,71008.68,354.88681,-85.531982,
6232.5977,79182.055,316.31589,-85.499397,
7053.0605,88405.313,281.8942,-85.438553,
8701.3281,98396.633,251.20601,-84.946411,
9208.0615,110152.67,223.92496,-85.22155,
10395.956,122668.08,199.55338,-85.155838,
12052.755,137193.89,177.78128,-84.97934,
14107.579,151990.81,158.52898,-84.697075,
15170.093,169589.48,141.21979,-84.88839,
17527.363,190130.7,125.92673,-84.733025,
19989.258,212301.63,112.19009,-84.621178,
25974.43,238190.25,99.968163,-83.776543,
28968.473,268144.56,89.115646,-83.834076,
33197.262,297444.09,79.415741,-83.63166,
37015.543,333184.91,70.793182,-83.66066,
29725.316,353204.5,63.082279,-85.189384,
58035.004,393993.59,56.241825,-81.620621,
-557333.81,691141.5,50.112232,-128.88257,
89988.297,514637.72,44.671223,-80.081673,
78201.414,577035.5,39.808899,-82.282143,
99450.266,601181.5,35.488308,-80.606926,
172646.69,741625.06,31.629578,-76.895226,
128344.99,733189.63,28.187037,-80.070961,
144966.64,870641.38,25.120602,-80.546661,
169653.97,976245.69,22.385418,-80.141479,
204688.72,1071332.3,19.955338,-79.183426,
276610.19,1117242.3,17.775894,-76.09417,
251307.08,1304541.5,15.846864,-79.096107,
284728.41,1625338.0,14.127493,-80.06369,
489044.63,1786257.6,12.587309,-74.688667,
579408.31,2012605.1,11.216775,-73.939438,
635444.5,2126158.0,9.9968166,-73.360176,
740120.0,2200352.3,8.9082127,-71.408897,
780820.19,2637091.3,7.9395623,-73.506424,
945140.88,2935287.3,7.0765615,-72.151825,
1117545.5,3264482.3,6.3105822,-71.10215,
1476929.1,3287047.8,5.6245475,-65.804771,
1651410.8,3659711.8,5.0112233,-65.713165,
1834863.6,3548024.5,4.4642835,-62.654221,
1600821.6,4791111.0,3.9819033,-71.52433,
2753681.0,4824217.0,3.5479143,-60.282116,
2407129.5,4793061.0,3.1629577,-63.333679,
3157912.5,5944305.0,2.818361,-62.020523,
3722483.8,5225008.5,2.5112481,-54.532566,
4101520.0,5808370.5,2.2398233,-54.772575,
4894301.5,5563993.0,1.9950197,-48.663902,
5903341.5,5984634.5,1.7775893,-45.391796,
5528249.5,6394897.0,1.5846864,-49.157299,
5754239.0,5277126.5,1.4122353,-42.523472,
7671181.0,6226398.5,1.2582541,-39.064892,
8384534.5,5535689.5,1.1224822,-33.433838,
8034467.0,6202820.5,1.0000616,-37.669086,
8535786.0,5596598.5,0.89082122,-33.251369,
9175459.0,5583313.0,0.79444051,-31.320724,
11178699.0,6617164.0,0.70784986,-30.623158,
10365685.0,5874733.5,0.63126236,-29.54232,
10718677.0,5319191.0,0.562536,-26.39311,
12635440.0,5890778.5,0.50118715,-24.995443,
11859081.0,5767330.5,0.44642836,-25.934669,
12666146.0,5108575.5,0.39821118,-21.96546,
13558612.0,5009412.5,0.35475865,-20.277433,
12093259.0,5926973.5,0.31619295,-26.10973,
14405893.0,4763664.5,0.2819173,-18.297745,
13024573.0,5595598.5,0.25117323,-23.249258,
14191629.0,5054738.5,0.22391155,-19.604753,
14808846.0,5246138.0,0.19957349,-19.50705,
15872428.0,6306516.0,0.17779917,-21.669172,
16501784.0,5095458.5,0.15846863,-17.159761,
16318527.0,5610147.0,0.14123619,-18.97246,
18226986.0,5404423.5,0.12590662,-16.515444,
18458806.0,6018712.0,0.1122199,-18.05917,
19888456.0,6044418.0,0.10002181,-16.904861,
20917708.0,6162036.5,0.089110434,-16.414167,
21086762.0,5962534.5,0.079420954,-15.788885,
22388592.0,6253286.5,0.070828199,-15.605412,
22736810.0,5828832.0,0.063119084,-14.378749,
21057470.0,7516847.0,0.056242272,-19.644947,
27317958.0,6488579.5,0.050094575,-13.361339,
26726206.0,9688344.0,0.044664517,-19.925758,
31362444.0,6726917.0,0.039821938,-12.105924,
33090696.0,5091866.5,0.035465583,-8.7478371,
34268168.0,10059000.0,0.031629652,-16.358953,
33771648.0,6942661.5,0.028168708,-11.616828,
58347312.0,18825292.0,0.025115162,-17.88188,
55157864.0,10087183.0,0.022385269,-10.363638,
56318684.0,11651425.0,0.019949377,-11.68867,
62515996.0,-588836.13,0.017787889,0.5396511,
63319020.0,9106579.0,0.015841872,-8.1841927,
64680124.0,9548914.0,0.014127269,-8.3980789,
60988820.0,10830899.0,0.012591705,-10.070072,
12664727.0,1171792.6,0.011219755,-5.286191,
4305163.0,-4081615.0,0.0099972636,43.473152,
